T07E0 12405:305.461   SEGGER J-Link V7.86g Log File
T07E0 12405:305.532   DLL Compiled: Apr  6 2023 16:24:24
T07E0 12405:305.540   Logging started @ 2023-04-14 06:28
T07E0 12405:305.547 - 5657185.575ms
T07E0 12405:305.557 JLINK_SetWarnOutHandler(...)
T07E0 12405:305.565 - 0.010ms
T07E0 12405:305.573 JLINK_OpenEx(...)
T07E0 12405:306.981   Firmware: J-Link ARM V8 compiled Nov 28 2014 13:44:46
T07E0 12405:307.302   Firmware: J-Link ARM V8 compiled Nov 28 2014 13:44:46
T07E0 12405:309.540   Hardware: V8.00
T07E0 12405:309.556   S/N: 788551941
T07E0 12405:309.565   OEM: SEGGER
T07E0 12405:309.574   Feature(s): RDI,FlashDL,FlashBP,JFlash,GDB
T07E0 12405:310.769   TELNET listener socket opened on port 19021
T07E0 12405:315.675   WEBSRV WEBSRV_Init(): Starting webserver thread(s)
T07E0 12405:315.826   WEBSRV Webserver running on local port 19080
T07E0 12405:330.851 - 25.305ms returns "O.K."
T07E0 12405:330.898 JLINK_GetEmuCaps()
T07E0 12405:330.906 - 0.011ms returns 0xB9FF7BBF
T07E0 12405:330.917 JLINK_TIF_GetAvailable(...)
T07E0 12405:331.107 - 0.197ms
T07E0 12405:331.122 JLINK_SetErrorOutHandler(...)
T07E0 12405:331.129 - 0.010ms
T07E0 12405:331.458 JLINK_ExecCommand("ProjectFile = "C:\Users\Yian\Desktop\a\w25qxx_wr\MDK-ARM\JLinkSettings.ini"", ...). 
T07E0 12405:333.746 - 2.296ms returns 0x00
T07E0 12405:335.775 JLINK_ExecCommand("Device = STM32F103RE", ...). 
T07E0 12405:337.475   Device "STM32F103RE" selected.
T07E0 12405:337.756 - 1.971ms returns 0x00
T07E0 12405:337.769 JLINK_ExecCommand("DisableConnectionTimeout", ...). 
T07E0 12405:337.779 - 0.004ms returns 0x01
T07E0 12405:337.790 JLINK_GetHardwareVersion()
T07E0 12405:337.797 - 0.009ms returns 80000
T07E0 12405:337.806 JLINK_GetDLLVersion()
T07E0 12405:337.812 - 0.009ms returns 78607
T07E0 12405:337.820 JLINK_GetOEMString(...)
T07E0 12405:337.829 JLINK_GetFirmwareString(...)
T07E0 12405:337.835 - 0.009ms
T07E0 12405:343.506 JLINK_GetDLLVersion()
T07E0 12405:343.525 - 0.022ms returns 78607
T07E0 12405:343.537 JLINK_GetCompileDateTime()
T07E0 12405:343.544 - 0.010ms
T07E0 12405:344.775 JLINK_GetFirmwareString(...)
T07E0 12405:344.789 - 0.017ms
T07E0 12405:346.054 JLINK_GetHardwareVersion()
T07E0 12405:346.068 - 0.017ms returns 80000
T07E0 12405:347.439 JLINK_GetSN()
T07E0 12405:347.454 - 0.018ms returns 788551941
T07E0 12405:348.755 JLINK_GetOEMString(...)
T07E0 12405:351.290 JLINK_TIF_Select(JLINKARM_TIF_SWD)
T07E0 12405:351.845 - 0.561ms returns 0x00
T07E0 12405:351.859 JLINK_HasError()
T07E0 12405:351.869 JLINK_SetSpeed(5000)
T07E0 12405:351.927 - 0.064ms
T07E0 12405:351.940 JLINK_GetId()
T07E0 12405:353.353   InitTarget() start
T07E0 12405:353.370    J-Link Script File: Executing InitTarget()
T07E0 12405:354.918   SWD selected. Executing JTAG -> SWD switching sequence.
T07E0 12405:359.282   DAP initialized successfully.
T07E0 12405:371.781   InitTarget() end - Took 16.3ms
T07E0 12405:373.734   Found SW-DP with ID 0x1BA01477
T07E0 12405:377.231   Old FW that does not support reading DPIDR via DAP jobs
T07E0 12405:382.117   DPv0 detected
T07E0 12405:383.402   CoreSight SoC-400 or earlier
T07E0 12405:384.692   Scanning AP map to find all available APs
T07E0 12405:388.569   AP[1]: Stopped AP scan as end of AP map has been reached
T07E0 12405:389.921   AP[0]: AHB-AP (IDR: 0x14770011)
T07E0 12405:391.228   Iterating through AP map to find AHB-AP to use
T07E0 12405:396.381   AP[0]: Core found
T07E0 12405:397.684   AP[0]: AHB-AP ROM base: 0xE00FF000
T07E0 12405:400.892   CPUID register: 0x411FC231. Implementer code: 0x41 (ARM)
T07E0 12405:402.343   Found Cortex-M3 r1p1, Little endian.
T07E0 12405:402.662   -- Max. mem block: 0x00002408
T07E0 12405:403.191   CPU_ReadMem(4 bytes @ 0xE000EDF0)
T07E0 12405:403.529   CPU_ReadMem(4 bytes @ 0xE0002000)
T07E0 12405:405.139   FPUnit: 6 code (BP) slots and 2 literal slots
T07E0 12405:405.157   CPU_ReadMem(4 bytes @ 0xE000EDFC)
T07E0 12405:405.469   CPU_WriteMem(4 bytes @ 0xE000EDFC)
T07E0 12405:405.844   CPU_ReadMem(4 bytes @ 0xE0001000)
T07E0 12405:406.154   CPU_WriteMem(4 bytes @ 0xE0001000)
T07E0 12405:406.597   CPU_ReadMem(4 bytes @ 0xE000ED88)
T07E0 12405:406.945   CPU_WriteMem(4 bytes @ 0xE000ED88)
T07E0 12405:407.338   CPU_ReadMem(4 bytes @ 0xE000ED88)
T07E0 12405:407.707   CPU_WriteMem(4 bytes @ 0xE000ED88)
T07E0 12405:409.336   CoreSight components:
T07E0 12405:410.691   ROMTbl[0] @ E00FF000
T07E0 12405:410.710   CPU_ReadMem(64 bytes @ 0xE00FF000)
T07E0 12405:411.496   CPU_ReadMem(32 bytes @ 0xE000EFE0)
T07E0 12405:413.385   [0][0]: E000E000 CID B105E00D PID 001BB000 SCS
T07E0 12405:413.404   CPU_ReadMem(32 bytes @ 0xE0001FE0)
T07E0 12405:415.201   [0][1]: E0001000 CID B105E00D PID 001BB002 DWT
T07E0 12405:415.219   CPU_ReadMem(32 bytes @ 0xE0002FE0)
T07E0 12405:417.129   [0][2]: E0002000 CID B105E00D PID 000BB003 FPB
T07E0 12405:417.147   CPU_ReadMem(32 bytes @ 0xE0000FE0)
T07E0 12405:419.072   [0][3]: E0000000 CID B105E00D PID 001BB001 ITM
T07E0 12405:419.091   CPU_ReadMem(32 bytes @ 0xE0040FE0)
T07E0 12405:421.103   [0][4]: E0040000 CID B105900D PID 001BB923 TPIU-Lite
T07E0 12405:421.122   CPU_ReadMem(32 bytes @ 0xE0041FE0)
T07E0 12405:423.056   [0][5]: E0041000 CID B105900D PID 101BB924 ETM-M3
T07E0 12405:423.507 - 71.577ms returns 0x1BA01477
T07E0 12405:423.526 JLINK_GetDLLVersion()
T07E0 12405:423.534 - 0.010ms returns 78607
T07E0 12405:423.600 JLINK_CORE_GetFound()
T07E0 12405:423.614 - 0.017ms returns 0x30000FF
T07E0 12405:423.624 JLINK_GetDebugInfo(0x100 = JLINKARM_ROM_TABLE_ADDR_INDEX)
T07E0 12405:423.632   Value=0xE00FF000
T07E0 12405:423.642 - 0.021ms returns 0
T07E0 12405:424.958 JLINK_GetDebugInfo(0x100 = JLINKARM_ROM_TABLE_ADDR_INDEX)
T07E0 12405:424.972   Value=0xE00FF000
T07E0 12405:424.982 - 0.027ms returns 0
T07E0 12405:424.990 JLINK_GetDebugInfo(0x101 = JLINKARM_DEBUG_INFO_ETM_ADDR_INDEX)
T07E0 12405:424.997   Value=0xE0041000
T07E0 12405:425.006 - 0.019ms returns 0
T07E0 12405:425.015 JLINK_ReadMemEx(0xE0041FD0, 0x20 Bytes, Flags = 0x02000004)
T07E0 12405:425.030   CPU_ReadMem(32 bytes @ 0xE0041FD0)
T07E0 12405:425.612   Data:  04 00 00 00 00 00 00 00 00 00 00 00 00 00 00 00 ...
T07E0 12405:425.629 - 0.617ms returns 32 (0x20)
T07E0 12405:425.639 JLINK_GetDebugInfo(0x102 = JLINKARM_DEBUG_INFO_MTB_ADDR_INDEX)
T07E0 12405:425.646   Value=0x00000000
T07E0 12405:425.655 - 0.020ms returns 0
T07E0 12405:425.663 JLINK_GetDebugInfo(0x103 = JLINKARM_DEBUG_INFO_TPIU_ADDR_INDEX)
T07E0 12405:425.669   Value=0xE0040000
T07E0 12405:425.679 - 0.019ms returns 0
T07E0 12405:425.686 JLINK_GetDebugInfo(0x104 = JLINKARM_DEBUG_INFO_ITM_ADDR_INDEX)
T07E0 12405:425.693   Value=0xE0000000
T07E0 12405:425.702 - 0.019ms returns 0
T07E0 12405:425.709 JLINK_GetDebugInfo(0x105 = JLINKARM_DEBUG_INFO_DWT_ADDR_INDEX)
T07E0 12405:425.716   Value=0xE0001000
T07E0 12405:425.725 - 0.018ms returns 0
T07E0 12405:425.732 JLINK_GetDebugInfo(0x106 = JLINKARM_DEBUG_INFO_FPB_ADDR_INDEX)
T07E0 12405:425.738   Value=0xE0002000
T07E0 12405:425.748 - 0.018ms returns 0
T07E0 12405:425.755 JLINK_GetDebugInfo(0x107 = JLINKARM_DEBUG_INFO_NVIC_ADDR_INDEX)
T07E0 12405:425.762   Value=0xE000E000
T07E0 12405:425.771 - 0.019ms returns 0
T07E0 12405:425.778 JLINK_GetDebugInfo(0x10C = JLINKARM_DEBUG_INFO_DBG_ADDR_INDEX)
T07E0 12405:425.785   Value=0xE000EDF0
T07E0 12405:425.794 - 0.019ms returns 0
T07E0 12405:425.801 JLINK_GetDebugInfo(0x01 = Unknown)
T07E0 12405:425.808   Value=0x00000000
T07E0 12405:425.817 - 0.019ms returns 0
T07E0 12405:425.826 JLINK_ReadMemU32(0xE000ED00, 0x1 Items)
T07E0 12405:425.836   CPU_ReadMem(4 bytes @ 0xE000ED00)
T07E0 12405:426.182   Data:  31 C2 1F 41
T07E0 12405:426.199   Debug reg: CPUID
T07E0 12405:426.208 - 0.385ms returns 1 (0x1)
T07E0 12405:426.218 JLINK_GetDebugInfo(0x10F = JLINKARM_DEBUG_INFO_HAS_CORTEX_M_SECURITY_EXT_INDEX)
T07E0 12405:426.225   Value=0x00000000
T07E0 12405:426.234 - 0.020ms returns 0
T07E0 12405:426.242 JLINK_HasError()
T07E0 12405:426.252 JLINK_SetResetType(JLINKARM_CM3_RESET_TYPE_NORMAL)
T07E0 12405:426.259 - 0.010ms returns JLINKARM_CM3_RESET_TYPE_NORMAL
T07E0 12405:426.267 JLINK_Reset()
T07E0 12405:426.284   CPU is running
T07E0 12405:426.295   CPU_WriteMem(4 bytes @ 0xE000EDF0)
T07E0 12405:426.687   CPU is running
T07E0 12405:426.705   CPU_WriteMem(4 bytes @ 0xE000EDFC)
T07E0 12405:428.393   Reset: Halt core after reset via DEMCR.VC_CORERESET.
T07E0 12405:430.116   Reset: Reset device via AIRCR.SYSRESETREQ.
T07E0 12405:430.134   CPU is running
T07E0 12405:430.146   CPU_WriteMem(4 bytes @ 0xE000ED0C)
T07E0 12405:482.849   CPU_ReadMem(4 bytes @ 0xE000EDF0)
T07E0 12405:483.178   CPU_ReadMem(4 bytes @ 0xE000EDF0)
T07E0 12405:485.665   CPU_WriteMem(4 bytes @ 0xE000EDFC)
T07E0 12405:491.142   CPU_ReadMem(4 bytes @ 0xE000EDF0)
T07E0 12405:493.670   CPU_WriteMem(4 bytes @ 0xE0002000)
T07E0 12405:494.034   CPU_ReadMem(4 bytes @ 0xE000EDFC)
T07E0 12405:494.346   CPU_ReadMem(4 bytes @ 0xE0001000)
T07E0 12405:494.665 - 68.403ms
T07E0 12405:494.708 JLINK_Halt()
T07E0 12405:494.717 - 0.012ms returns 0x00
T07E0 12405:494.725 JLINK_ReadMemU32(0xE000EDF0, 0x1 Items)
T07E0 12405:494.736   CPU_ReadMem(4 bytes @ 0xE000EDF0)
T07E0 12405:495.047   Data:  03 00 03 00
T07E0 12405:495.059   Debug reg: DHCSR
T07E0 12405:495.068 - 0.346ms returns 1 (0x1)
T07E0 12405:495.078 JLINK_WriteU32_64(0xE000EDF0, 0xA05F0003)
T07E0 12405:495.085   Debug reg: DHCSR
T07E0 12405:495.355   CPU_WriteMem(4 bytes @ 0xE000EDF0)
T07E0 12405:495.694 - 0.622ms returns 0 (0x00000000)
T07E0 12405:495.705 JLINK_WriteU32_64(0xE000EDFC, 0x01000000)
T07E0 12405:495.713   Debug reg: DEMCR
T07E0 12405:495.725   CPU_WriteMem(4 bytes @ 0xE000EDFC)
T07E0 12405:496.121 - 0.428ms returns 0 (0x00000000)
T07E0 12405:501.658 JLINK_GetHWStatus(...)
T07E0 12405:501.843 - 0.197ms returns 0
T07E0 12405:505.581 JLINK_GetNumBPUnits(Type = 0xFFFFFF00)
T07E0 12405:505.597 - 0.019ms returns 0x06
T07E0 12405:505.605 JLINK_GetNumBPUnits(Type = 0xF0)
T07E0 12405:505.612 - 0.010ms returns 0x2000
T07E0 12405:505.620 JLINK_GetNumWPUnits()
T07E0 12405:505.626 - 0.009ms returns 4
T07E0 12405:509.410 JLINK_GetSpeed()
T07E0 12405:509.424 - 0.017ms returns 4000
T07E0 12405:511.888 JLINK_ReadMemU32(0xE000E004, 0x1 Items)
T07E0 12405:511.911   CPU_ReadMem(4 bytes @ 0xE000E004)
T07E0 12405:512.294   Data:  01 00 00 00
T07E0 12405:512.312 - 0.427ms returns 1 (0x1)
T07E0 12405:512.321 JLINK_ReadMemU32(0xE000E004, 0x1 Items)
T07E0 12405:512.332   CPU_ReadMem(4 bytes @ 0xE000E004)
T07E0 12405:512.726   Data:  01 00 00 00
T07E0 12405:512.743 - 0.425ms returns 1 (0x1)
T07E0 12405:512.755 JLINK_WriteMemEx(0xE0001000, 0x0000001C Bytes, Flags = 0x02000004)
T07E0 12405:512.763   Data:  01 00 00 00 00 00 00 00 00 00 00 00 00 00 00 00 ...
T07E0 12405:512.779   CPU_WriteMem(28 bytes @ 0xE0001000)
T07E0 12405:513.320 - 0.575ms returns 0x1C
T07E0 12405:513.339 JLINK_Halt()
T07E0 12405:513.346 - 0.010ms returns 0x00
T07E0 12405:513.356 JLINK_IsHalted()
T07E0 12405:513.363 - 0.011ms returns TRUE
T07E0 12405:517.197 JLINK_WriteMem(0x20000000, 0x164 Bytes, ...)
T07E0 12405:517.213   Data:  00 BE 0A E0 0D 78 2D 06 68 40 08 24 40 00 00 D3 ...
T07E0 12405:517.467   CPU_WriteMem(356 bytes @ 0x20000000)
T07E0 12405:520.065 - 2.878ms returns 0x164
T07E0 12405:520.104 JLINK_HasError()
T07E0 12405:520.167 JLINK_WriteReg(R0, 0x08000000)
T07E0 12405:520.184 - 0.020ms returns 0
T07E0 12405:520.192 JLINK_WriteReg(R1, 0x007A1200)
T07E0 12405:520.199 - 0.010ms returns 0
T07E0 12405:520.207 JLINK_WriteReg(R2, 0x00000001)
T07E0 12405:520.214 - 0.010ms returns 0
T07E0 12405:520.221 JLINK_WriteReg(R3, 0x00000000)
T07E0 12405:520.228 - 0.010ms returns 0
T07E0 12405:520.235 JLINK_WriteReg(R4, 0x00000000)
T07E0 12405:520.242 - 0.010ms returns 0
T07E0 12405:520.249 JLINK_WriteReg(R5, 0x00000000)
T07E0 12405:520.256 - 0.010ms returns 0
T07E0 12405:520.264 JLINK_WriteReg(R6, 0x00000000)
T07E0 12405:520.270 - 0.010ms returns 0
T07E0 12405:520.278 JLINK_WriteReg(R7, 0x00000000)
T07E0 12405:520.284 - 0.010ms returns 0
T07E0 12405:520.292 JLINK_WriteReg(R8, 0x00000000)
T07E0 12405:520.299 - 0.010ms returns 0
T07E0 12405:520.306 JLINK_WriteReg(R9, 0x20000160)
T07E0 12405:520.315 - 0.014ms returns 0
T07E0 12405:520.325 JLINK_WriteReg(R10, 0x00000000)
T07E0 12405:520.332 - 0.010ms returns 0
T07E0 12405:520.339 JLINK_WriteReg(R11, 0x00000000)
T07E0 12405:520.346 - 0.010ms returns 0
T07E0 12405:520.353 JLINK_WriteReg(R12, 0x00000000)
T07E0 12405:520.360 - 0.009ms returns 0
T07E0 12405:520.367 JLINK_WriteReg(R13 (SP), 0x20001000)
T07E0 12405:520.374 - 0.010ms returns 0
T07E0 12405:520.382 JLINK_WriteReg(R14, 0x20000001)
T07E0 12405:520.389 - 0.010ms returns 0
T07E0 12405:520.396 JLINK_WriteReg(R15 (PC), 0x20000038)
T07E0 12405:520.403 - 0.010ms returns 0
T07E0 12405:520.410 JLINK_WriteReg(XPSR, 0x01000000)
T07E0 12405:520.417 - 0.010ms returns 0
T07E0 12405:520.424 JLINK_WriteReg(MSP, 0x20001000)
T07E0 12405:520.431 - 0.010ms returns 0
T07E0 12405:520.439 JLINK_WriteReg(PSP, 0x20001000)
T07E0 12405:520.445 - 0.010ms returns 0
T07E0 12405:520.453 JLINK_WriteReg(CFBP, 0x00000000)
T07E0 12405:520.459 - 0.010ms returns 0
T07E0 12405:520.469 JLINK_SetBPEx(Addr = 0x20000000, Type = 0xFFFFFFF2)
T07E0 12405:520.481   CPU_ReadMem(2 bytes @ 0x20000000)
T07E0 12405:520.887 - 0.428ms returns 0x00000001
T07E0 12405:520.905 JLINK_Go()
T07E0 12405:520.915   CPU_WriteMem(2 bytes @ 0x20000000)
T07E0 12405:521.328   CPU_ReadMem(4 bytes @ 0xE0001000)
T07E0 12405:521.694   CPU_WriteMem(4 bytes @ 0xE0002008)
T07E0 12405:521.712   CPU_WriteMem(4 bytes @ 0xE000200C)
T07E0 12405:521.722   CPU_WriteMem(4 bytes @ 0xE0002010)
T07E0 12405:521.732   CPU_WriteMem(4 bytes @ 0xE0002014)
T07E0 12405:521.742   CPU_WriteMem(4 bytes @ 0xE0002018)
T07E0 12405:521.751   CPU_WriteMem(4 bytes @ 0xE000201C)
T07E0 12405:523.554   CPU_WriteMem(4 bytes @ 0xE0001004)
T07E0 12405:526.133 - 5.238ms
T07E0 12405:526.149 JLINK_IsHalted()
T07E0 12405:528.332   CPU_ReadMem(2 bytes @ 0x20000000)
T07E0 12405:528.694 - 2.555ms returns TRUE
T07E0 12405:528.713 JLINK_ReadReg(R15 (PC))
T07E0 12405:528.722 - 0.012ms returns 0x20000000
T07E0 12405:528.731 JLINK_ClrBPEx(BPHandle = 0x00000001)
T07E0 12405:528.738 - 0.010ms returns 0x00
T07E0 12405:528.746 JLINK_ReadReg(R0)
T07E0 12405:528.753 - 0.010ms returns 0x00000000
T07E0 12405:528.952 JLINK_HasError()
T07E0 12405:528.965 JLINK_WriteReg(R0, 0x08000000)
T07E0 12405:528.973 - 0.011ms returns 0
T07E0 12405:528.981 JLINK_WriteReg(R1, 0x007A1200)
T07E0 12405:528.987 - 0.010ms returns 0
T07E0 12405:528.995 JLINK_WriteReg(R2, 0x00000001)
T07E0 12405:529.001 - 0.009ms returns 0
T07E0 12405:529.009 JLINK_WriteReg(R3, 0x00000000)
T07E0 12405:529.015 - 0.009ms returns 0
T07E0 12405:529.023 JLINK_WriteReg(R4, 0x00000000)
T07E0 12405:529.029 - 0.010ms returns 0
T07E0 12405:529.036 JLINK_WriteReg(R5, 0x00000000)
T07E0 12405:529.043 - 0.010ms returns 0
T07E0 12405:529.050 JLINK_WriteReg(R6, 0x00000000)
T07E0 12405:529.057 - 0.010ms returns 0
T07E0 12405:529.065 JLINK_WriteReg(R7, 0x00000000)
T07E0 12405:529.071 - 0.009ms returns 0
T07E0 12405:529.078 JLINK_WriteReg(R8, 0x00000000)
T07E0 12405:529.085 - 0.010ms returns 0
T07E0 12405:529.092 JLINK_WriteReg(R9, 0x20000160)
T07E0 12405:529.099 - 0.010ms returns 0
T07E0 12405:529.106 JLINK_WriteReg(R10, 0x00000000)
T07E0 12405:529.113 - 0.010ms returns 0
T07E0 12405:529.120 JLINK_WriteReg(R11, 0x00000000)
T07E0 12405:529.127 - 0.009ms returns 0
T07E0 12405:529.134 JLINK_WriteReg(R12, 0x00000000)
T07E0 12405:529.141 - 0.010ms returns 0
T07E0 12405:529.148 JLINK_WriteReg(R13 (SP), 0x20001000)
T07E0 12405:529.155 - 0.010ms returns 0
T07E0 12405:529.162 JLINK_WriteReg(R14, 0x20000001)
T07E0 12405:529.169 - 0.010ms returns 0
T07E0 12405:529.176 JLINK_WriteReg(R15 (PC), 0x2000007C)
T07E0 12405:529.183 - 0.009ms returns 0
T07E0 12405:529.190 JLINK_WriteReg(XPSR, 0x01000000)
T07E0 12405:529.197 - 0.010ms returns 0
T07E0 12405:529.204 JLINK_WriteReg(MSP, 0x20001000)
T07E0 12405:529.211 - 0.010ms returns 0
T07E0 12405:529.218 JLINK_WriteReg(PSP, 0x20001000)
T07E0 12405:529.225 - 0.009ms returns 0
T07E0 12405:529.232 JLINK_WriteReg(CFBP, 0x00000000)
T07E0 12405:529.239 - 0.049ms returns 0
T07E0 12405:529.290 JLINK_SetBPEx(Addr = 0x20000000, Type = 0xFFFFFFF2)
T07E0 12405:529.298 - 0.011ms returns 0x00000002
T07E0 12405:529.306 JLINK_Go()
T07E0 12405:529.318   CPU_ReadMem(4 bytes @ 0xE0001000)
T07E0 12405:531.772 - 2.480ms
T07E0 12405:531.793 JLINK_IsHalted()
T07E0 12405:532.080 - 0.292ms returns FALSE
T07E0 12405:532.091 JLINK_HasError()
T07E0 12405:541.818 JLINK_IsHalted()
T07E0 12405:542.138 - 0.326ms returns FALSE
T07E0 12405:542.150 JLINK_HasError()
T07E0 12405:543.787 JLINK_IsHalted()
T07E0 12405:544.169 - 0.390ms returns FALSE
T07E0 12405:544.183 JLINK_HasError()
T07E0 12405:546.725 JLINK_IsHalted()
T07E0 12405:547.081 - 0.366ms returns FALSE
T07E0 12405:547.099 JLINK_HasError()
T07E0 12405:549.717 JLINK_IsHalted()
T07E0 12405:550.070 - 0.359ms returns FALSE
T07E0 12405:550.082 JLINK_HasError()
T07E0 12405:551.737 JLINK_IsHalted()
T07E0 12405:552.094 - 0.363ms returns FALSE
T07E0 12405:552.104 JLINK_HasError()
T07E0 12405:553.747 JLINK_IsHalted()
T07E0 12405:556.000   CPU_ReadMem(2 bytes @ 0x20000000)
T07E0 12405:556.351 - 2.610ms returns TRUE
T07E0 12405:556.362 JLINK_ReadReg(R15 (PC))
T07E0 12405:556.371 - 0.012ms returns 0x20000000
T07E0 12405:556.379 JLINK_ClrBPEx(BPHandle = 0x00000002)
T07E0 12405:556.386 - 0.010ms returns 0x00
T07E0 12405:556.394 JLINK_ReadReg(R0)
T07E0 12405:556.401 - 0.010ms returns 0x00000000
T07E0 12405:608.215 JLINK_HasError()
T07E0 12405:608.253 JLINK_WriteReg(R0, 0x00000001)
T07E0 12405:608.263 - 0.014ms returns 0
T07E0 12405:608.271 JLINK_WriteReg(R1, 0x007A1200)
T07E0 12405:608.279 - 0.010ms returns 0
T07E0 12405:608.286 JLINK_WriteReg(R2, 0x00000001)
T07E0 12405:608.293 - 0.010ms returns 0
T07E0 12405:608.301 JLINK_WriteReg(R3, 0x00000000)
T07E0 12405:608.308 - 0.010ms returns 0
T07E0 12405:608.315 JLINK_WriteReg(R4, 0x00000000)
T07E0 12405:608.322 - 0.010ms returns 0
T07E0 12405:608.330 JLINK_WriteReg(R5, 0x00000000)
T07E0 12405:608.336 - 0.010ms returns 0
T07E0 12405:608.344 JLINK_WriteReg(R6, 0x00000000)
T07E0 12405:608.351 - 0.010ms returns 0
T07E0 12405:608.358 JLINK_WriteReg(R7, 0x00000000)
T07E0 12405:608.365 - 0.010ms returns 0
T07E0 12405:608.373 JLINK_WriteReg(R8, 0x00000000)
T07E0 12405:608.380 - 0.010ms returns 0
T07E0 12405:608.387 JLINK_WriteReg(R9, 0x20000160)
T07E0 12405:608.394 - 0.010ms returns 0
T07E0 12405:608.402 JLINK_WriteReg(R10, 0x00000000)
T07E0 12405:608.408 - 0.010ms returns 0
T07E0 12405:608.416 JLINK_WriteReg(R11, 0x00000000)
T07E0 12405:608.423 - 0.010ms returns 0
T07E0 12405:608.430 JLINK_WriteReg(R12, 0x00000000)
T07E0 12405:608.437 - 0.010ms returns 0
T07E0 12405:608.444 JLINK_WriteReg(R13 (SP), 0x20001000)
T07E0 12405:608.452 - 0.011ms returns 0
T07E0 12405:608.460 JLINK_WriteReg(R14, 0x20000001)
T07E0 12405:608.467 - 0.010ms returns 0
T07E0 12405:608.474 JLINK_WriteReg(R15 (PC), 0x2000006A)
T07E0 12405:608.481 - 0.010ms returns 0
T07E0 12405:608.488 JLINK_WriteReg(XPSR, 0x01000000)
T07E0 12405:608.496 - 0.010ms returns 0
T07E0 12405:608.503 JLINK_WriteReg(MSP, 0x20001000)
T07E0 12405:608.510 - 0.010ms returns 0
T07E0 12405:608.518 JLINK_WriteReg(PSP, 0x20001000)
T07E0 12405:608.524 - 0.010ms returns 0
T07E0 12405:608.532 JLINK_WriteReg(CFBP, 0x00000000)
T07E0 12405:608.539 - 0.010ms returns 0
T07E0 12405:608.546 JLINK_SetBPEx(Addr = 0x20000000, Type = 0xFFFFFFF2)
T07E0 12405:608.555 - 0.011ms returns 0x00000003
T07E0 12405:608.562 JLINK_Go()
T07E0 12405:608.581   CPU_ReadMem(4 bytes @ 0xE0001000)
T07E0 12405:611.144 - 2.595ms
T07E0 12405:611.165 JLINK_IsHalted()
T07E0 12405:613.377   CPU_ReadMem(2 bytes @ 0x20000000)
T07E0 12405:613.697 - 2.541ms returns TRUE
T07E0 12405:613.712 JLINK_ReadReg(R15 (PC))
T07E0 12405:613.721 - 0.012ms returns 0x20000000
T07E0 12405:613.729 JLINK_ClrBPEx(BPHandle = 0x00000003)
T07E0 12405:613.736 - 0.010ms returns 0x00
T07E0 12405:613.744 JLINK_ReadReg(R0)
T07E0 12405:613.751 - 0.010ms returns 0x00000000
T07E0 12405:617.195 JLINK_WriteMem(0x20000000, 0x164 Bytes, ...)
T07E0 12405:617.209   Data:  00 BE 0A E0 0D 78 2D 06 68 40 08 24 40 00 00 D3 ...
T07E0 12405:617.231   CPU_WriteMem(356 bytes @ 0x20000000)
T07E0 12405:619.767 - 2.578ms returns 0x164
T07E0 12405:619.796 JLINK_HasError()
T07E0 12405:619.806 JLINK_WriteReg(R0, 0x08000000)
T07E0 12405:619.814 - 0.011ms returns 0
T07E0 12405:619.822 JLINK_WriteReg(R1, 0x007A1200)
T07E0 12405:619.829 - 0.010ms returns 0
T07E0 12405:619.836 JLINK_WriteReg(R2, 0x00000002)
T07E0 12405:619.843 - 0.010ms returns 0
T07E0 12405:619.851 JLINK_WriteReg(R3, 0x00000000)
T07E0 12405:619.857 - 0.010ms returns 0
T07E0 12405:619.865 JLINK_WriteReg(R4, 0x00000000)
T07E0 12405:619.871 - 0.010ms returns 0
T07E0 12405:619.879 JLINK_WriteReg(R5, 0x00000000)
T07E0 12405:619.886 - 0.010ms returns 0
T07E0 12405:619.893 JLINK_WriteReg(R6, 0x00000000)
T07E0 12405:619.900 - 0.010ms returns 0
T07E0 12405:619.907 JLINK_WriteReg(R7, 0x00000000)
T07E0 12405:619.914 - 0.010ms returns 0
T07E0 12405:619.921 JLINK_WriteReg(R8, 0x00000000)
T07E0 12405:619.928 - 0.010ms returns 0
T07E0 12405:619.935 JLINK_WriteReg(R9, 0x20000160)
T07E0 12405:619.942 - 0.010ms returns 0
T07E0 12405:619.949 JLINK_WriteReg(R10, 0x00000000)
T07E0 12405:619.956 - 0.010ms returns 0
T07E0 12405:619.964 JLINK_WriteReg(R11, 0x00000000)
T07E0 12405:619.971 - 0.010ms returns 0
T07E0 12405:619.978 JLINK_WriteReg(R12, 0x00000000)
T07E0 12405:619.985 - 0.010ms returns 0
T07E0 12405:619.992 JLINK_WriteReg(R13 (SP), 0x20001000)
T07E0 12405:619.999 - 0.010ms returns 0
T07E0 12405:620.007 JLINK_WriteReg(R14, 0x20000001)
T07E0 12405:620.013 - 0.010ms returns 0
T07E0 12405:620.021 JLINK_WriteReg(R15 (PC), 0x20000038)
T07E0 12405:620.028 - 0.010ms returns 0
T07E0 12405:620.035 JLINK_WriteReg(XPSR, 0x01000000)
T07E0 12405:620.042 - 0.009ms returns 0
T07E0 12405:620.049 JLINK_WriteReg(MSP, 0x20001000)
T07E0 12405:620.056 - 0.010ms returns 0
T07E0 12405:620.063 JLINK_WriteReg(PSP, 0x20001000)
T07E0 12405:620.070 - 0.010ms returns 0
T07E0 12405:620.078 JLINK_WriteReg(CFBP, 0x00000000)
T07E0 12405:620.084 - 0.010ms returns 0
T07E0 12405:620.092 JLINK_SetBPEx(Addr = 0x20000000, Type = 0xFFFFFFF2)
T07E0 12405:620.101   CPU_ReadMem(2 bytes @ 0x20000000)
T07E0 12405:620.417 - 0.330ms returns 0x00000004
T07E0 12405:620.428 JLINK_Go()
T07E0 12405:620.436   CPU_WriteMem(2 bytes @ 0x20000000)
T07E0 12405:620.779   CPU_ReadMem(4 bytes @ 0xE0001000)
T07E0 12405:623.146 - 2.726ms
T07E0 12405:623.162 JLINK_IsHalted()
T07E0 12405:625.337   CPU_ReadMem(2 bytes @ 0x20000000)
T07E0 12405:625.664 - 2.506ms returns TRUE
T07E0 12405:625.677 JLINK_ReadReg(R15 (PC))
T07E0 12405:625.685 - 0.011ms returns 0x20000000
T07E0 12405:625.694 JLINK_ClrBPEx(BPHandle = 0x00000004)
T07E0 12405:625.701 - 0.010ms returns 0x00
T07E0 12405:625.709 JLINK_ReadReg(R0)
T07E0 12405:625.716 - 0.010ms returns 0x00000000
T07E0 12405:625.901 JLINK_WriteMem(0x20000164, 0x29C Bytes, ...)
T07E0 12405:625.914   Data:  F8 2D 00 20 45 01 00 08 5D 4C 00 08 C5 45 00 08 ...
T07E0 12405:625.928   CPU_WriteMem(668 bytes @ 0x20000164)
T07E0 12405:630.192 - 4.298ms returns 0x29C
T07E0 12405:630.205 JLINK_WriteMem(0x20000400, 0x164 Bytes, ...)
T07E0 12405:630.213   Data:  00 24 87 EA 11 52 84 EA E7 73 1A 43 40 D0 00 9A ...
T07E0 12405:630.226   CPU_WriteMem(356 bytes @ 0x20000400)
T07E0 12405:632.695 - 2.496ms returns 0x164
T07E0 12405:632.708 JLINK_HasError()
T07E0 12405:632.716 JLINK_WriteReg(R0, 0x08000000)
T07E0 12405:632.724 - 0.011ms returns 0
T07E0 12405:632.732 JLINK_WriteReg(R1, 0x00000400)
T07E0 12405:632.739 - 0.010ms returns 0
T07E0 12405:632.746 JLINK_WriteReg(R2, 0x20000164)
T07E0 12405:632.753 - 0.009ms returns 0
T07E0 12405:632.761 JLINK_WriteReg(R3, 0x00000000)
T07E0 12405:632.767 - 0.010ms returns 0
T07E0 12405:632.775 JLINK_WriteReg(R4, 0x00000000)
T07E0 12405:632.782 - 0.010ms returns 0
T07E0 12405:632.789 JLINK_WriteReg(R5, 0x00000000)
T07E0 12405:632.796 - 0.010ms returns 0
T07E0 12405:632.803 JLINK_WriteReg(R6, 0x00000000)
T07E0 12405:632.810 - 0.009ms returns 0
T07E0 12405:632.818 JLINK_WriteReg(R7, 0x00000000)
T07E0 12405:632.827 - 0.015ms returns 0
T07E0 12405:632.837 JLINK_WriteReg(R8, 0x00000000)
T07E0 12405:632.844 - 0.010ms returns 0
T07E0 12405:632.851 JLINK_WriteReg(R9, 0x20000160)
T07E0 12405:632.858 - 0.010ms returns 0
T07E0 12405:632.865 JLINK_WriteReg(R10, 0x00000000)
T07E0 12405:632.872 - 0.009ms returns 0
T07E0 12405:632.879 JLINK_WriteReg(R11, 0x00000000)
T07E0 12405:632.886 - 0.010ms returns 0
T07E0 12405:632.894 JLINK_WriteReg(R12, 0x00000000)
T07E0 12405:632.901 - 0.010ms returns 0
T07E0 12405:632.908 JLINK_WriteReg(R13 (SP), 0x20001000)
T07E0 12405:632.915 - 0.010ms returns 0
T07E0 12405:632.923 JLINK_WriteReg(R14, 0x20000001)
T07E0 12405:632.929 - 0.009ms returns 0
T07E0 12405:632.937 JLINK_WriteReg(R15 (PC), 0x200000F4)
T07E0 12405:632.944 - 0.010ms returns 0
T07E0 12405:632.951 JLINK_WriteReg(XPSR, 0x01000000)
T07E0 12405:632.958 - 0.010ms returns 0
T07E0 12405:632.965 JLINK_WriteReg(MSP, 0x20001000)
T07E0 12405:632.972 - 0.010ms returns 0
T07E0 12405:632.980 JLINK_WriteReg(PSP, 0x20001000)
T07E0 12405:632.986 - 0.009ms returns 0
T07E0 12405:632.994 JLINK_WriteReg(CFBP, 0x00000000)
T07E0 12405:633.001 - 0.010ms returns 0
T07E0 12405:633.009 JLINK_SetBPEx(Addr = 0x20000000, Type = 0xFFFFFFF2)
T07E0 12405:633.016 - 0.011ms returns 0x00000005
T07E0 12405:633.024 JLINK_Go()
T07E0 12405:633.036   CPU_ReadMem(4 bytes @ 0xE0001000)
T07E0 12405:635.474 - 2.459ms
T07E0 12405:635.489 JLINK_IsHalted()
T07E0 12405:635.772 - 0.288ms returns FALSE
T07E0 12405:635.783 JLINK_HasError()
T07E0 12405:638.700 JLINK_IsHalted()
T07E0 12405:639.040 - 0.347ms returns FALSE
T07E0 12405:639.052 JLINK_HasError()
T07E0 12405:640.696 JLINK_IsHalted()
T07E0 12405:641.025 - 0.333ms returns FALSE
T07E0 12405:641.035 JLINK_HasError()
T07E0 12405:642.699 JLINK_IsHalted()
T07E0 12405:643.044 - 0.351ms returns FALSE
T07E0 12405:643.055 JLINK_HasError()
T07E0 12405:645.708 JLINK_IsHalted()
T07E0 12405:646.039 - 0.337ms returns FALSE
T07E0 12405:646.050 JLINK_HasError()
T07E0 12405:647.702 JLINK_IsHalted()
T07E0 12405:648.054 - 0.357ms returns FALSE
T07E0 12405:648.064 JLINK_HasError()
T07E0 12405:650.046 JLINK_IsHalted()
T07E0 12405:650.325 - 0.285ms returns FALSE
T07E0 12405:650.336 JLINK_HasError()
T07E0 12405:654.065 JLINK_IsHalted()
T07E0 12405:654.409 - 0.350ms returns FALSE
T07E0 12405:654.421 JLINK_HasError()
T07E0 12405:656.051 JLINK_IsHalted()
T07E0 12405:656.387 - 0.342ms returns FALSE
T07E0 12405:656.398 JLINK_HasError()
T07E0 12405:658.405 JLINK_IsHalted()
T07E0 12405:658.746 - 0.346ms returns FALSE
T07E0 12405:658.757 JLINK_HasError()
T07E0 12405:660.742 JLINK_IsHalted()
T07E0 12405:661.029 - 0.293ms returns FALSE
T07E0 12405:661.041 JLINK_HasError()
T07E0 12405:662.759 JLINK_IsHalted()
T07E0 12405:663.090 - 0.336ms returns FALSE
T07E0 12405:663.101 JLINK_HasError()
T07E0 12405:664.730 JLINK_IsHalted()
T07E0 12405:665.037 - 0.312ms returns FALSE
T07E0 12405:665.048 JLINK_HasError()
T07E0 12405:666.828 JLINK_IsHalted()
T07E0 12405:669.072   CPU_ReadMem(2 bytes @ 0x20000000)
T07E0 12405:669.459 - 2.641ms returns TRUE
T07E0 12405:669.476 JLINK_ReadReg(R15 (PC))
T07E0 12405:669.485 - 0.030ms returns 0x20000000
T07E0 12405:669.514 JLINK_ClrBPEx(BPHandle = 0x00000005)
T07E0 12405:669.522 - 0.011ms returns 0x00
T07E0 12405:669.530 JLINK_ReadReg(R0)
T07E0 12405:669.537 - 0.010ms returns 0x00000000
T07E0 12405:669.907 JLINK_WriteMem(0x20000164, 0x29C Bytes, ...)
T07E0 12405:669.921   Data:  0B 01 64 EB 00 04 2B 0D 43 EA 0C 33 5E 18 44 EB ...
T07E0 12405:669.936   CPU_WriteMem(668 bytes @ 0x20000164)
T07E0 12405:674.269 - 4.388ms returns 0x29C
T07E0 12405:674.302 JLINK_WriteMem(0x20000400, 0x164 Bytes, ...)
T07E0 12405:674.309   Data:  0A 98 63 05 E4 0A A0 EB 08 00 00 22 FD 0A 44 EA ...
T07E0 12405:674.322   CPU_WriteMem(356 bytes @ 0x20000400)
T07E0 12405:676.826 - 2.530ms returns 0x164
T07E0 12405:676.839 JLINK_HasError()
T07E0 12405:676.848 JLINK_WriteReg(R0, 0x08000400)
T07E0 12405:676.856 - 0.011ms returns 0
T07E0 12405:676.865 JLINK_WriteReg(R1, 0x00000400)
T07E0 12405:676.877 - 0.016ms returns 0
T07E0 12405:676.886 JLINK_WriteReg(R2, 0x20000164)
T07E0 12405:676.893 - 0.010ms returns 0
T07E0 12405:676.901 JLINK_WriteReg(R3, 0x00000000)
T07E0 12405:676.908 - 0.010ms returns 0
T07E0 12405:676.916 JLINK_WriteReg(R4, 0x00000000)
T07E0 12405:676.923 - 0.010ms returns 0
T07E0 12405:676.931 JLINK_WriteReg(R5, 0x00000000)
T07E0 12405:676.938 - 0.010ms returns 0
T07E0 12405:676.946 JLINK_WriteReg(R6, 0x00000000)
T07E0 12405:676.953 - 0.010ms returns 0
T07E0 12405:676.962 JLINK_WriteReg(R7, 0x00000000)
T07E0 12405:676.968 - 0.010ms returns 0
T07E0 12405:676.977 JLINK_WriteReg(R8, 0x00000000)
T07E0 12405:676.983 - 0.010ms returns 0
T07E0 12405:676.992 JLINK_WriteReg(R9, 0x20000160)
T07E0 12405:676.998 - 0.010ms returns 0
T07E0 12405:677.007 JLINK_WriteReg(R10, 0x00000000)
T07E0 12405:677.013 - 0.010ms returns 0
T07E0 12405:677.022 JLINK_WriteReg(R11, 0x00000000)
T07E0 12405:677.028 - 0.010ms returns 0
T07E0 12405:677.037 JLINK_WriteReg(R12, 0x00000000)
T07E0 12405:677.044 - 0.010ms returns 0
T07E0 12405:677.052 JLINK_WriteReg(R13 (SP), 0x20001000)
T07E0 12405:677.059 - 0.010ms returns 0
T07E0 12405:677.067 JLINK_WriteReg(R14, 0x20000001)
T07E0 12405:677.074 - 0.010ms returns 0
T07E0 12405:677.082 JLINK_WriteReg(R15 (PC), 0x200000F4)
T07E0 12405:677.089 - 0.010ms returns 0
T07E0 12405:677.097 JLINK_WriteReg(XPSR, 0x01000000)
T07E0 12405:677.104 - 0.010ms returns 0
T07E0 12405:677.113 JLINK_WriteReg(MSP, 0x20001000)
T07E0 12405:677.119 - 0.010ms returns 0
T07E0 12405:677.128 JLINK_WriteReg(PSP, 0x20001000)
T07E0 12405:677.134 - 0.010ms returns 0
T07E0 12405:677.143 JLINK_WriteReg(CFBP, 0x00000000)
T07E0 12405:677.150 - 0.010ms returns 0
T07E0 12405:677.158 JLINK_SetBPEx(Addr = 0x20000000, Type = 0xFFFFFFF2)
T07E0 12405:677.166 - 0.011ms returns 0x00000006
T07E0 12405:677.174 JLINK_Go()
T07E0 12405:677.187   CPU_ReadMem(4 bytes @ 0xE0001000)
T07E0 12405:679.643 - 2.479ms
T07E0 12405:679.661 JLINK_IsHalted()
T07E0 12405:679.994 - 0.343ms returns FALSE
T07E0 12405:680.012 JLINK_HasError()
T07E0 12405:682.336 JLINK_IsHalted()
T07E0 12405:682.694 - 0.365ms returns FALSE
T07E0 12405:682.706 JLINK_HasError()
T07E0 12405:685.390 JLINK_IsHalted()
T07E0 12405:685.692 - 0.308ms returns FALSE
T07E0 12405:685.703 JLINK_HasError()
T07E0 12405:687.315 JLINK_IsHalted()
T07E0 12405:687.660 - 0.350ms returns FALSE
T07E0 12405:687.671 JLINK_HasError()
T07E0 12405:689.318 JLINK_IsHalted()
T07E0 12405:689.662 - 0.349ms returns FALSE
T07E0 12405:689.673 JLINK_HasError()
T07E0 12405:691.734 JLINK_IsHalted()
T07E0 12405:692.017 - 0.289ms returns FALSE
T07E0 12405:692.028 JLINK_HasError()
T07E0 12405:694.241 JLINK_IsHalted()
T07E0 12405:694.566 - 0.331ms returns FALSE
T07E0 12405:694.577 JLINK_HasError()
T07E0 12405:696.235 JLINK_IsHalted()
T07E0 12405:696.564 - 0.340ms returns FALSE
T07E0 12405:696.581 JLINK_HasError()
T07E0 12405:698.152 JLINK_IsHalted()
T07E0 12405:698.439 - 0.293ms returns FALSE
T07E0 12405:698.450 JLINK_HasError()
T07E0 12405:701.167 JLINK_IsHalted()
T07E0 12405:701.505 - 0.344ms returns FALSE
T07E0 12405:701.516 JLINK_HasError()
T07E0 12405:703.518 JLINK_IsHalted()
T07E0 12405:703.913 - 0.400ms returns FALSE
T07E0 12405:703.923 JLINK_HasError()
T07E0 12405:705.515 JLINK_IsHalted()
T07E0 12405:705.915 - 0.406ms returns FALSE
T07E0 12405:705.928 JLINK_HasError()
T07E0 12405:708.581 JLINK_IsHalted()
T07E0 12405:708.941 - 0.370ms returns FALSE
T07E0 12405:708.958 JLINK_HasError()
T07E0 12405:710.585 JLINK_IsHalted()
T07E0 12405:712.831   CPU_ReadMem(2 bytes @ 0x20000000)
T07E0 12405:713.176 - 2.601ms returns TRUE
T07E0 12405:713.193 JLINK_ReadReg(R15 (PC))
T07E0 12405:713.202 - 0.012ms returns 0x20000000
T07E0 12405:713.210 JLINK_ClrBPEx(BPHandle = 0x00000006)
T07E0 12405:713.217 - 0.010ms returns 0x00
T07E0 12405:713.225 JLINK_ReadReg(R0)
T07E0 12405:713.232 - 0.010ms returns 0x00000000
T07E0 12405:713.559 JLINK_WriteMem(0x20000164, 0x29C Bytes, ...)
T07E0 12405:713.571   Data:  08 23 00 91 11 46 1A 46 03 F0 DE FE 02 98 00 99 ...
T07E0 12405:713.636   CPU_WriteMem(668 bytes @ 0x20000164)
T07E0 12405:717.904 - 4.356ms returns 0x29C
T07E0 12405:717.921 JLINK_WriteMem(0x20000400, 0x164 Bytes, ...)
T07E0 12405:717.929   Data:  00 68 58 21 C4 F2 02 01 88 42 04 D1 FF E7 4F F4 ...
T07E0 12405:717.943   CPU_WriteMem(356 bytes @ 0x20000400)
T07E0 12405:720.451 - 2.539ms returns 0x164
T07E0 12405:720.467 JLINK_HasError()
T07E0 12405:720.475 JLINK_WriteReg(R0, 0x08000800)
T07E0 12405:720.484 - 0.011ms returns 0
T07E0 12405:720.491 JLINK_WriteReg(R1, 0x00000400)
T07E0 12405:720.498 - 0.010ms returns 0
T07E0 12405:720.506 JLINK_WriteReg(R2, 0x20000164)
T07E0 12405:720.513 - 0.010ms returns 0
T07E0 12405:720.520 JLINK_WriteReg(R3, 0x00000000)
T07E0 12405:720.527 - 0.010ms returns 0
T07E0 12405:720.534 JLINK_WriteReg(R4, 0x00000000)
T07E0 12405:720.541 - 0.010ms returns 0
T07E0 12405:720.549 JLINK_WriteReg(R5, 0x00000000)
T07E0 12405:720.556 - 0.010ms returns 0
T07E0 12405:720.563 JLINK_WriteReg(R6, 0x00000000)
T07E0 12405:720.570 - 0.010ms returns 0
T07E0 12405:720.577 JLINK_WriteReg(R7, 0x00000000)
T07E0 12405:720.584 - 0.010ms returns 0
T07E0 12405:720.591 JLINK_WriteReg(R8, 0x00000000)
T07E0 12405:720.598 - 0.010ms returns 0
T07E0 12405:720.606 JLINK_WriteReg(R9, 0x20000160)
T07E0 12405:720.613 - 0.010ms returns 0
T07E0 12405:720.620 JLINK_WriteReg(R10, 0x00000000)
T07E0 12405:720.627 - 0.010ms returns 0
T07E0 12405:720.634 JLINK_WriteReg(R11, 0x00000000)
T07E0 12405:720.641 - 0.010ms returns 0
T07E0 12405:720.649 JLINK_WriteReg(R12, 0x00000000)
T07E0 12405:720.656 - 0.010ms returns 0
T07E0 12405:720.663 JLINK_WriteReg(R13 (SP), 0x20001000)
T07E0 12405:720.671 - 0.010ms returns 0
T07E0 12405:720.678 JLINK_WriteReg(R14, 0x20000001)
T07E0 12405:720.685 - 0.010ms returns 0
T07E0 12405:720.692 JLINK_WriteReg(R15 (PC), 0x200000F4)
T07E0 12405:720.699 - 0.010ms returns 0
T07E0 12405:720.707 JLINK_WriteReg(XPSR, 0x01000000)
T07E0 12405:720.714 - 0.010ms returns 0
T07E0 12405:720.721 JLINK_WriteReg(MSP, 0x20001000)
T07E0 12405:720.728 - 0.010ms returns 0
T07E0 12405:720.735 JLINK_WriteReg(PSP, 0x20001000)
T07E0 12405:720.742 - 0.010ms returns 0
T07E0 12405:720.749 JLINK_WriteReg(CFBP, 0x00000000)
T07E0 12405:720.756 - 0.010ms returns 0
T07E0 12405:720.764 JLINK_SetBPEx(Addr = 0x20000000, Type = 0xFFFFFFF2)
T07E0 12405:720.772 - 0.011ms returns 0x00000007
T07E0 12405:720.780 JLINK_Go()
T07E0 12405:720.793   CPU_ReadMem(4 bytes @ 0xE0001000)
T07E0 12405:723.126 - 2.354ms
T07E0 12405:723.140 JLINK_IsHalted()
T07E0 12405:723.418 - 0.283ms returns FALSE
T07E0 12405:723.429 JLINK_HasError()
T07E0 12405:728.154 JLINK_IsHalted()
T07E0 12405:728.511 - 0.363ms returns FALSE
T07E0 12405:728.523 JLINK_HasError()
T07E0 12405:730.132 JLINK_IsHalted()
T07E0 12405:730.424 - 0.299ms returns FALSE
T07E0 12405:730.436 JLINK_HasError()
T07E0 12405:733.216 JLINK_IsHalted()
T07E0 12405:733.519 - 0.312ms returns FALSE
T07E0 12405:733.534 JLINK_HasError()
T07E0 12405:735.136 JLINK_IsHalted()
T07E0 12405:735.474 - 0.345ms returns FALSE
T07E0 12405:735.486 JLINK_HasError()
T07E0 12405:737.129 JLINK_IsHalted()
T07E0 12405:737.464 - 0.341ms returns FALSE
T07E0 12405:737.475 JLINK_HasError()
T07E0 12405:739.133 JLINK_IsHalted()
T07E0 12405:739.468 - 0.341ms returns FALSE
T07E0 12405:739.480 JLINK_HasError()
T07E0 12405:742.124 JLINK_IsHalted()
T07E0 12405:742.465 - 0.347ms returns FALSE
T07E0 12405:742.476 JLINK_HasError()
T07E0 12405:744.104 JLINK_IsHalted()
T07E0 12405:744.443 - 0.345ms returns FALSE
T07E0 12405:744.454 JLINK_HasError()
T07E0 12405:746.462 JLINK_IsHalted()
T07E0 12405:746.838 - 0.386ms returns FALSE
T07E0 12405:746.855 JLINK_HasError()
T07E0 12405:749.459 JLINK_IsHalted()
T07E0 12405:749.796 - 0.343ms returns FALSE
T07E0 12405:749.808 JLINK_HasError()
T07E0 12405:751.503 JLINK_IsHalted()
T07E0 12405:751.796 - 0.298ms returns FALSE
T07E0 12405:751.807 JLINK_HasError()
T07E0 12405:753.439 JLINK_IsHalted()
T07E0 12405:753.772 - 0.339ms returns FALSE
T07E0 12405:753.787 JLINK_HasError()
T07E0 12405:757.429 JLINK_IsHalted()
T07E0 12405:759.576   CPU_ReadMem(2 bytes @ 0x20000000)
T07E0 12405:759.928 - 2.504ms returns TRUE
T07E0 12405:759.939 JLINK_ReadReg(R15 (PC))
T07E0 12405:759.948 - 0.012ms returns 0x20000000
T07E0 12405:759.955 JLINK_ClrBPEx(BPHandle = 0x00000007)
T07E0 12405:759.963 - 0.010ms returns 0x00
T07E0 12405:759.971 JLINK_ReadReg(R0)
T07E0 12405:759.978 - 0.010ms returns 0x00000000
T07E0 12405:760.310 JLINK_WriteMem(0x20000164, 0x29C Bytes, ...)
T07E0 12405:760.322   Data:  92 B0 11 90 10 91 00 20 0F 90 0B 90 FF E7 10 98 ...
T07E0 12405:760.338   CPU_WriteMem(668 bytes @ 0x20000164)
T07E0 12405:764.694 - 4.396ms returns 0x29C
T07E0 12405:764.713 JLINK_WriteMem(0x20000400, 0x164 Bytes, ...)
T07E0 12405:764.721   Data:  40 F2 00 41 C4 F2 01 01 0A 68 10 43 08 60 09 E0 ...
T07E0 12405:764.735   CPU_WriteMem(356 bytes @ 0x20000400)
T07E0 12405:767.309 - 2.606ms returns 0x164
T07E0 12405:767.326 JLINK_HasError()
T07E0 12405:767.335 JLINK_WriteReg(R0, 0x08000C00)
T07E0 12405:767.344 - 0.012ms returns 0
T07E0 12405:767.351 JLINK_WriteReg(R1, 0x00000400)
T07E0 12405:767.359 - 0.010ms returns 0
T07E0 12405:767.366 JLINK_WriteReg(R2, 0x20000164)
T07E0 12405:767.373 - 0.010ms returns 0
T07E0 12405:767.381 JLINK_WriteReg(R3, 0x00000000)
T07E0 12405:767.387 - 0.010ms returns 0
T07E0 12405:767.395 JLINK_WriteReg(R4, 0x00000000)
T07E0 12405:767.402 - 0.010ms returns 0
T07E0 12405:767.409 JLINK_WriteReg(R5, 0x00000000)
T07E0 12405:767.416 - 0.010ms returns 0
T07E0 12405:767.423 JLINK_WriteReg(R6, 0x00000000)
T07E0 12405:767.430 - 0.010ms returns 0
T07E0 12405:767.438 JLINK_WriteReg(R7, 0x00000000)
T07E0 12405:767.444 - 0.009ms returns 0
T07E0 12405:767.452 JLINK_WriteReg(R8, 0x00000000)
T07E0 12405:767.459 - 0.010ms returns 0
T07E0 12405:767.466 JLINK_WriteReg(R9, 0x20000160)
T07E0 12405:767.473 - 0.010ms returns 0
T07E0 12405:767.481 JLINK_WriteReg(R10, 0x00000000)
T07E0 12405:767.487 - 0.010ms returns 0
T07E0 12405:767.495 JLINK_WriteReg(R11, 0x00000000)
T07E0 12405:767.501 - 0.009ms returns 0
T07E0 12405:767.509 JLINK_WriteReg(R12, 0x00000000)
T07E0 12405:767.516 - 0.010ms returns 0
T07E0 12405:767.523 JLINK_WriteReg(R13 (SP), 0x20001000)
T07E0 12405:767.531 - 0.010ms returns 0
T07E0 12405:767.538 JLINK_WriteReg(R14, 0x20000001)
T07E0 12405:767.545 - 0.010ms returns 0
T07E0 12405:767.552 JLINK_WriteReg(R15 (PC), 0x200000F4)
T07E0 12405:767.559 - 0.010ms returns 0
T07E0 12405:767.567 JLINK_WriteReg(XPSR, 0x01000000)
T07E0 12405:767.574 - 0.010ms returns 0
T07E0 12405:767.581 JLINK_WriteReg(MSP, 0x20001000)
T07E0 12405:767.588 - 0.010ms returns 0
T07E0 12405:767.595 JLINK_WriteReg(PSP, 0x20001000)
T07E0 12405:767.602 - 0.010ms returns 0
T07E0 12405:767.609 JLINK_WriteReg(CFBP, 0x00000000)
T07E0 12405:767.616 - 0.009ms returns 0
T07E0 12405:767.624 JLINK_SetBPEx(Addr = 0x20000000, Type = 0xFFFFFFF2)
T07E0 12405:767.632 - 0.011ms returns 0x00000008
T07E0 12405:767.640 JLINK_Go()
T07E0 12405:767.653   CPU_ReadMem(4 bytes @ 0xE0001000)
T07E0 12405:770.070 - 2.441ms
T07E0 12405:770.087 JLINK_IsHalted()
T07E0 12405:770.371 - 0.294ms returns FALSE
T07E0 12405:770.388 JLINK_HasError()
T07E0 12405:774.319 JLINK_IsHalted()
T07E0 12405:774.661 - 0.349ms returns FALSE
T07E0 12405:774.673 JLINK_HasError()
T07E0 12405:776.297 JLINK_IsHalted()
T07E0 12405:776.661 - 0.370ms returns FALSE
T07E0 12405:776.672 JLINK_HasError()
T07E0 12405:778.682 JLINK_IsHalted()
T07E0 12405:779.007 - 0.330ms returns FALSE
T07E0 12405:779.018 JLINK_HasError()
T07E0 12405:781.687 JLINK_IsHalted()
T07E0 12405:782.013 - 0.332ms returns FALSE
T07E0 12405:782.026 JLINK_HasError()
T07E0 12405:783.662 JLINK_IsHalted()
T07E0 12405:784.016 - 0.360ms returns FALSE
T07E0 12405:784.027 JLINK_HasError()
T07E0 12405:785.657 JLINK_IsHalted()
T07E0 12405:786.013 - 0.363ms returns FALSE
T07E0 12405:786.025 JLINK_HasError()
T07E0 12405:788.248 JLINK_IsHalted()
T07E0 12405:788.580 - 0.338ms returns FALSE
T07E0 12405:788.591 JLINK_HasError()
T07E0 12405:790.237 JLINK_IsHalted()
T07E0 12405:790.563 - 0.331ms returns FALSE
T07E0 12405:790.574 JLINK_HasError()
T07E0 12405:792.230 JLINK_IsHalted()
T07E0 12405:792.558 - 0.333ms returns FALSE
T07E0 12405:792.568 JLINK_HasError()
T07E0 12405:794.180 JLINK_IsHalted()
T07E0 12405:794.511 - 0.337ms returns FALSE
T07E0 12405:794.522 JLINK_HasError()
T07E0 12405:796.253 JLINK_IsHalted()
T07E0 12405:796.577 - 0.334ms returns FALSE
T07E0 12405:796.594 JLINK_HasError()
T07E0 12405:798.632 JLINK_IsHalted()
T07E0 12405:798.963 - 0.337ms returns FALSE
T07E0 12405:798.975 JLINK_HasError()
T07E0 12405:800.623 JLINK_IsHalted()
T07E0 12405:802.812   CPU_ReadMem(2 bytes @ 0x20000000)
T07E0 12405:803.153 - 2.536ms returns TRUE
T07E0 12405:803.164 JLINK_ReadReg(R15 (PC))
T07E0 12405:803.173 - 0.012ms returns 0x20000000
T07E0 12405:803.181 JLINK_ClrBPEx(BPHandle = 0x00000008)
T07E0 12405:803.188 - 0.010ms returns 0x00
T07E0 12405:803.196 JLINK_ReadReg(R0)
T07E0 12405:803.203 - 0.010ms returns 0x00000000
T07E0 12405:803.548 JLINK_WriteMem(0x20000164, 0x29C Bytes, ...)
T07E0 12405:803.562   Data:  40 F2 20 11 C2 F2 00 01 09 78 4F F4 7A 72 B2 FB ...
T07E0 12405:803.577   CPU_WriteMem(668 bytes @ 0x20000164)
T07E0 12405:807.907 - 4.370ms returns 0x29C
T07E0 12405:807.925 JLINK_WriteMem(0x20000400, 0x164 Bytes, ...)
T07E0 12405:807.933   Data:  08 70 FF E7 02 98 90 F8 A8 02 01 28 04 D1 FF E7 ...
T07E0 12405:807.947   CPU_WriteMem(356 bytes @ 0x20000400)
T07E0 12405:810.583 - 2.669ms returns 0x164
T07E0 12405:810.602 JLINK_HasError()
T07E0 12405:810.612 JLINK_WriteReg(R0, 0x08001000)
T07E0 12405:810.621 - 0.012ms returns 0
T07E0 12405:810.629 JLINK_WriteReg(R1, 0x00000400)
T07E0 12405:810.636 - 0.010ms returns 0
T07E0 12405:810.644 JLINK_WriteReg(R2, 0x20000164)
T07E0 12405:810.651 - 0.010ms returns 0
T07E0 12405:810.658 JLINK_WriteReg(R3, 0x00000000)
T07E0 12405:810.665 - 0.010ms returns 0
T07E0 12405:810.673 JLINK_WriteReg(R4, 0x00000000)
T07E0 12405:810.680 - 0.010ms returns 0
T07E0 12405:810.688 JLINK_WriteReg(R5, 0x00000000)
T07E0 12405:810.694 - 0.010ms returns 0
T07E0 12405:810.702 JLINK_WriteReg(R6, 0x00000000)
T07E0 12405:810.709 - 0.010ms returns 0
T07E0 12405:810.717 JLINK_WriteReg(R7, 0x00000000)
T07E0 12405:810.724 - 0.010ms returns 0
T07E0 12405:810.732 JLINK_WriteReg(R8, 0x00000000)
T07E0 12405:810.739 - 0.010ms returns 0
T07E0 12405:810.746 JLINK_WriteReg(R9, 0x20000160)
T07E0 12405:810.753 - 0.010ms returns 0
T07E0 12405:810.760 JLINK_WriteReg(R10, 0x00000000)
T07E0 12405:810.767 - 0.010ms returns 0
T07E0 12405:810.775 JLINK_WriteReg(R11, 0x00000000)
T07E0 12405:810.782 - 0.010ms returns 0
T07E0 12405:810.790 JLINK_WriteReg(R12, 0x00000000)
T07E0 12405:810.797 - 0.010ms returns 0
T07E0 12405:810.805 JLINK_WriteReg(R13 (SP), 0x20001000)
T07E0 12405:810.812 - 0.010ms returns 0
T07E0 12405:810.819 JLINK_WriteReg(R14, 0x20000001)
T07E0 12405:810.826 - 0.010ms returns 0
T07E0 12405:810.834 JLINK_WriteReg(R15 (PC), 0x200000F4)
T07E0 12405:810.841 - 0.010ms returns 0
T07E0 12405:810.849 JLINK_WriteReg(XPSR, 0x01000000)
T07E0 12405:810.856 - 0.010ms returns 0
T07E0 12405:810.864 JLINK_WriteReg(MSP, 0x20001000)
T07E0 12405:810.870 - 0.009ms returns 0
T07E0 12405:810.878 JLINK_WriteReg(PSP, 0x20001000)
T07E0 12405:810.885 - 0.010ms returns 0
T07E0 12405:810.893 JLINK_WriteReg(CFBP, 0x00000000)
T07E0 12405:810.900 - 0.010ms returns 0
T07E0 12405:810.908 JLINK_SetBPEx(Addr = 0x20000000, Type = 0xFFFFFFF2)
T07E0 12405:810.916 - 0.011ms returns 0x00000009
T07E0 12405:810.923 JLINK_Go()
T07E0 12405:810.936   CPU_ReadMem(4 bytes @ 0xE0001000)
T07E0 12405:813.485 - 2.572ms
T07E0 12405:813.503 JLINK_IsHalted()
T07E0 12405:813.803 - 0.310ms returns FALSE
T07E0 12405:813.821 JLINK_HasError()
T07E0 12405:815.551 JLINK_IsHalted()
T07E0 12405:815.941 - 0.396ms returns FALSE
T07E0 12405:815.952 JLINK_HasError()
T07E0 12405:817.553 JLINK_IsHalted()
T07E0 12405:817.943 - 0.396ms returns FALSE
T07E0 12405:817.954 JLINK_HasError()
T07E0 12405:820.061 JLINK_IsHalted()
T07E0 12405:820.412 - 0.361ms returns FALSE
T07E0 12405:820.428 JLINK_HasError()
T07E0 12405:822.532 JLINK_IsHalted()
T07E0 12405:822.971 - 0.449ms returns FALSE
T07E0 12405:822.987 JLINK_HasError()
T07E0 12405:824.524 JLINK_IsHalted()
T07E0 12405:824.882 - 0.368ms returns FALSE
T07E0 12405:824.899 JLINK_HasError()
T07E0 12405:826.501 JLINK_IsHalted()
T07E0 12405:826.974 - 0.483ms returns FALSE
T07E0 12405:826.991 JLINK_HasError()
T07E0 12405:828.437 JLINK_IsHalted()
T07E0 12405:828.826 - 0.398ms returns FALSE
T07E0 12405:828.842 JLINK_HasError()
T07E0 12405:830.417 JLINK_IsHalted()
T07E0 12405:830.749 - 0.342ms returns FALSE
T07E0 12405:830.765 JLINK_HasError()
T07E0 12405:832.382 JLINK_IsHalted()
T07E0 12405:832.662 - 0.287ms returns FALSE
T07E0 12405:832.674 JLINK_HasError()
T07E0 12405:834.410 JLINK_IsHalted()
T07E0 12405:834.746 - 0.342ms returns FALSE
T07E0 12405:834.758 JLINK_HasError()
T07E0 12405:836.394 JLINK_IsHalted()
T07E0 12405:836.718 - 0.330ms returns FALSE
T07E0 12405:836.729 JLINK_HasError()
T07E0 12405:838.463 JLINK_IsHalted()
T07E0 12405:838.746 - 0.294ms returns FALSE
T07E0 12405:838.764 JLINK_HasError()
T07E0 12405:840.390 JLINK_IsHalted()
T07E0 12405:840.720 - 0.336ms returns FALSE
T07E0 12405:840.731 JLINK_HasError()
T07E0 12405:842.741 JLINK_IsHalted()
T07E0 12405:843.085 - 0.350ms returns FALSE
T07E0 12405:843.097 JLINK_HasError()
T07E0 12405:844.727 JLINK_IsHalted()
T07E0 12405:846.849   CPU_ReadMem(2 bytes @ 0x20000000)
T07E0 12405:847.165 - 2.444ms returns TRUE
T07E0 12405:847.177 JLINK_ReadReg(R15 (PC))
T07E0 12405:847.186 - 0.012ms returns 0x20000000
T07E0 12405:847.193 JLINK_ClrBPEx(BPHandle = 0x00000009)
T07E0 12405:847.200 - 0.010ms returns 0x00
T07E0 12405:847.208 JLINK_ReadReg(R0)
T07E0 12405:847.215 - 0.010ms returns 0x00000000
T07E0 12405:847.568 JLINK_WriteMem(0x20000164, 0x29C Bytes, ...)
T07E0 12405:847.581   Data:  BD F8 14 00 06 99 8A 69 10 1A 88 61 03 E0 06 98 ...
T07E0 12405:847.596   CPU_WriteMem(668 bytes @ 0x20000164)
T07E0 12405:851.901 - 4.340ms returns 0x29C
T07E0 12405:851.915 JLINK_WriteMem(0x20000400, 0x164 Bytes, ...)
T07E0 12405:851.922   Data:  B0 F8 50 00 1F 99 08 44 1F 90 1F 98 26 99 09 78 ...
T07E0 12405:851.935   CPU_WriteMem(356 bytes @ 0x20000400)
T07E0 12405:854.465 - 2.585ms returns 0x164
T07E0 12405:854.506 JLINK_HasError()
T07E0 12405:854.514 JLINK_WriteReg(R0, 0x08001400)
T07E0 12405:854.522 - 0.011ms returns 0
T07E0 12405:854.529 JLINK_WriteReg(R1, 0x00000400)
T07E0 12405:854.536 - 0.010ms returns 0
T07E0 12405:854.544 JLINK_WriteReg(R2, 0x20000164)
T07E0 12405:854.551 - 0.010ms returns 0
T07E0 12405:854.558 JLINK_WriteReg(R3, 0x00000000)
T07E0 12405:854.565 - 0.009ms returns 0
T07E0 12405:854.572 JLINK_WriteReg(R4, 0x00000000)
T07E0 12405:854.579 - 0.010ms returns 0
T07E0 12405:854.587 JLINK_WriteReg(R5, 0x00000000)
T07E0 12405:854.594 - 0.010ms returns 0
T07E0 12405:854.601 JLINK_WriteReg(R6, 0x00000000)
T07E0 12405:854.608 - 0.010ms returns 0
T07E0 12405:854.616 JLINK_WriteReg(R7, 0x00000000)
T07E0 12405:854.622 - 0.009ms returns 0
T07E0 12405:854.630 JLINK_WriteReg(R8, 0x00000000)
T07E0 12405:854.637 - 0.010ms returns 0
T07E0 12405:854.644 JLINK_WriteReg(R9, 0x20000160)
T07E0 12405:854.651 - 0.010ms returns 0
T07E0 12405:854.658 JLINK_WriteReg(R10, 0x00000000)
T07E0 12405:854.665 - 0.010ms returns 0
T07E0 12405:854.672 JLINK_WriteReg(R11, 0x00000000)
T07E0 12405:854.679 - 0.009ms returns 0
T07E0 12405:854.686 JLINK_WriteReg(R12, 0x00000000)
T07E0 12405:854.693 - 0.010ms returns 0
T07E0 12405:854.700 JLINK_WriteReg(R13 (SP), 0x20001000)
T07E0 12405:854.708 - 0.010ms returns 0
T07E0 12405:854.715 JLINK_WriteReg(R14, 0x20000001)
T07E0 12405:854.723 - 0.011ms returns 0
T07E0 12405:854.731 JLINK_WriteReg(R15 (PC), 0x200000F4)
T07E0 12405:854.737 - 0.010ms returns 0
T07E0 12405:854.745 JLINK_WriteReg(XPSR, 0x01000000)
T07E0 12405:854.752 - 0.010ms returns 0
T07E0 12405:854.759 JLINK_WriteReg(MSP, 0x20001000)
T07E0 12405:854.766 - 0.010ms returns 0
T07E0 12405:854.777 JLINK_WriteReg(PSP, 0x20001000)
T07E0 12405:854.787 - 0.013ms returns 0
T07E0 12405:854.794 JLINK_WriteReg(CFBP, 0x00000000)
T07E0 12405:854.801 - 0.010ms returns 0
T07E0 12405:854.809 JLINK_SetBPEx(Addr = 0x20000000, Type = 0xFFFFFFF2)
T07E0 12405:854.816 - 0.011ms returns 0x0000000A
T07E0 12405:854.824 JLINK_Go()
T07E0 12405:854.836   CPU_ReadMem(4 bytes @ 0xE0001000)
T07E0 12405:857.265 - 2.451ms
T07E0 12405:857.282 JLINK_IsHalted()
T07E0 12405:857.588 - 0.316ms returns FALSE
T07E0 12405:857.604 JLINK_HasError()
T07E0 12405:858.813 JLINK_IsHalted()
T07E0 12405:859.135 - 0.332ms returns FALSE
T07E0 12405:859.152 JLINK_HasError()
T07E0 12405:860.805 JLINK_IsHalted()
T07E0 12405:861.128 - 0.333ms returns FALSE
T07E0 12405:861.144 JLINK_HasError()
T07E0 12405:863.248 JLINK_IsHalted()
T07E0 12405:863.566 - 0.328ms returns FALSE
T07E0 12405:863.583 JLINK_HasError()
T07E0 12405:865.258 JLINK_IsHalted()
T07E0 12405:865.574 - 0.327ms returns FALSE
T07E0 12405:865.591 JLINK_HasError()
T07E0 12405:867.250 JLINK_IsHalted()
T07E0 12405:867.565 - 0.325ms returns FALSE
T07E0 12405:867.582 JLINK_HasError()
T07E0 12405:869.212 JLINK_IsHalted()
T07E0 12405:869.527 - 0.325ms returns FALSE
T07E0 12405:869.544 JLINK_HasError()
T07E0 12405:871.199 JLINK_IsHalted()
T07E0 12405:871.516 - 0.327ms returns FALSE
T07E0 12405:871.533 JLINK_HasError()
T07E0 12405:873.576 JLINK_IsHalted()
T07E0 12405:873.970 - 0.404ms returns FALSE
T07E0 12405:873.987 JLINK_HasError()
T07E0 12405:876.565 JLINK_IsHalted()
T07E0 12405:876.959 - 0.401ms returns FALSE
T07E0 12405:876.971 JLINK_HasError()
T07E0 12405:878.554 JLINK_IsHalted()
T07E0 12405:878.972 - 0.424ms returns FALSE
T07E0 12405:878.983 JLINK_HasError()
T07E0 12405:880.529 JLINK_IsHalted()
T07E0 12405:881.005 - 0.486ms returns FALSE
T07E0 12405:881.022 JLINK_HasError()
